Time [s],Value,Parity Error,Framing Error
0.001859040000000,\0,,
0.001865760000000,\x1D,,
0.001872480000000,\x07,,
0.001879200000000,\xF8,,
0.001885920000000,w,,
0.001892640000000,\0,,
0.001899360000000,\x80,,
0.001906080000000,\x97,,
0.001912800000000,\x0F,,
0.001919520000000,\0,,
0.001926240000000,\0,,
0.001932960000000,\0,,
0.001939680000000,\0,,
0.001946400000000,\xC0,,
0.001953120000000,\0,,
0.001959840000000,\0,,
0.001966560000000,\0,,
0.001973280000000,\0,,
0.001980000000000,\0,,
0.001986720000000,\0,,
0.001993440000000,\0,,
0.002000160000000,\0,,
0.002006880000000,\0,,
0.002013600000000,\0,,
0.002020320000000,\0,,
0.002027040000000,\0,,
0.002033760000000,\0,,
0.002040480000000,0,,
0.002047200000000,(,,
0.002178240000000,\x05,,
0.002184960000000,\0,,
0.002191680000000,\0,,
0.002198400000000,\0,,
0.002205120000000,\0,,
0.002211840000000,\0,,
0.002218560000000,\0,,
0.002225280000000,\0,,
0.002232000000000,\0,,
0.002238720000000,\0,,
0.002245440000000,\0,,
0.002252160000000,\0,,
0.002258880000000,\0,,
0.002265600000000,\0,,
0.002272320000000,\0,,
0.002279040000000,\0,,
0.002285760000000,\0,,
0.002292480000000,\0,,
0.002299200000000,\0,,
0.002305920000000,\0,,
0.002312640000000,},,
0.005199520000000,\0,,
0.005206240000000,\x1D,,
0.005212960000000,\x07,,
0.005219680000000,\xF8,,
0.005226400000000,w,,
0.005233120000000,\0,,
0.005239840000000,\x80,,
0.005246560000000,\x97,,
0.005253280000000,\x0F,,
0.005260000000000,\0,,
0.005266720000000,\0,,
0.005273440000000,\0,,
0.005280160000000,\0,,
0.005286880000000,\xC0,,
0.005293600000000,\0,,
0.005300320000000,\0,,
0.005307040000000,\0,,
0.005313760000000,\0,,
0.005320480000000,\0,,
0.005327200000000,\0,,
0.005333920000000,\0,,
0.005340640000000,\0,,
0.005347360000000,\0,,
0.005354080000000,\0,,
0.005360800000000,\0,,
0.005367520000000,\0,,
0.005374240000000,\0,,
0.005380960000000,0,,
0.005387680000000,(,,
0.005521440000000,\x05,,
0.005528160000000,\0,,
0.005534880000000,\0,,
0.005541600000000,\0,,
0.005548320000000,\0,,
0.005555040000000,\0,,
0.005561760000000,\0,,
0.005568480000000,\0,,
0.005575200000000,\0,,
0.005581920000000,\0,,
0.005588640000000,\0,,
0.005595360000000,\0,,
0.005602080000000,\0,,
0.005608800000000,\0,,
0.005615520000000,\0,,
0.005622240000000,\0,,
0.005628960000000,\0,,
0.005635680000000,\0,,
0.005642400000000,\0,,
0.005649120000000,\0,,
0.005655840000000,},,
0.011113600000000,\0,,
0.011120320000000,\x1D,,
0.011127040000000,\x07,,
0.011133760000000,\xF8,,
0.011140480000000,w,,
0.011147200000000,\0,,
0.011153920000000,\x80,,
0.011160640000000,\x97,,
0.011167360000000,\x0F,,
0.011174080000000,\0,,
0.011180800000000,\0,,
0.011187520000000,\0,,
0.011194240000000,\0,,
0.011200960000000,\xC0,,
0.011207680000000,\0,,
0.011214400000000,\0,,
0.011221120000000,\0,,
0.011227840000000,\0,,
0.011234560000000,\0,,
0.011241280000000,\0,,
0.011248000000000,\0,,
0.011254720000000,\0,,
0.011261440000000,\0,,
0.011268160000000,\0,,
0.011274880000000,\0,,
0.011281600000000,\0,,
0.011288320000000,\0,,
0.011295040000000,0,,
0.011301760000000,(,,
0.011434560000000,\x05,,
0.011441280000000,\0,,
0.011448000000000,\0,,
0.011454720000000,\0,,
0.011461440000000,\0,,
0.011468160000000,\0,,
0.011474880000000,\0,,
0.011481600000000,\0,,
0.011488320000000,\0,,
0.011495040000000,\0,,
0.011501760000000,\0,,
0.011508480000000,\0,,
0.011515200000000,\0,,
0.011521920000000,\0,,
0.011528640000000,\0,,
0.011535360000000,\0,,
0.011542080000000,\0,,
0.011548800000000,\0,,
0.011555520000000,\0,,
0.011562240000000,\0,,
0.011568960000000,},,
0.014467360000000,\0,,
0.014474080000000,\x1D,,
0.014480800000000,\x07,,
0.014487520000000,\xF8,,
0.014494240000000,w,,
0.014500960000000,\0,,
0.014507680000000,\x80,,
0.014514400000000,\x97,,
0.014521120000000,\x0F,,
0.014527840000000,\0,,
0.014534560000000,\0,,
0.014541280000000,\0,,
0.014548000000000,\0,,
0.014554720000000,\xC0,,
0.014561440000000,\0,,
0.014568160000000,\0,,
0.014574880000000,\0,,
0.014581600000000,\0,,
0.014588320000000,\0,,
0.014595040000000,\0,,
0.014601760000000,\0,,
0.014608480000000,\0,,
0.014615200000000,\0,,
0.014621920000000,\0,,
0.014628640000000,\0,,
0.014635360000000,\0,,
0.014642080000000,\0,,
0.014648800000000,0,,
0.014655520000000,(,,
0.014788960000000,\x05,,
0.014795680000000,\0,,
0.014802400000000,\0,,
0.014809120000000,\0,,
0.014815840000000,\0,,
0.014822560000000,\0,,
0.014829280000000,\0,,
0.014836000000000,\0,,
0.014842720000000,\0,,
0.014849440000000,\0,,
0.014856160000000,\0,,
0.014862880000000,\0,,
0.014869600000000,\0,,
0.014876320000000,\0,,
0.014883040000000,\0,,
0.014889760000000,\0,,
0.014896480000000,\0,,
0.014903200000000,\0,,
0.014909920000000,\0,,
0.014916640000000,\0,,
0.014923360000000,},,
0.017821280000000,\0,,
0.017828000000000,\x1D,,
0.017834720000000,\x07,,
0.017841440000000,\xF8,,
0.017848160000000,w,,
0.017854880000000,\0,,
0.017861600000000,\x80,,
0.017868320000000,\x97,,
0.017875040000000,\x0F,,
0.017881760000000,\0,,
0.017888480000000,\0,,
0.017895200000000,\0,,
0.017901920000000,\0,,
0.017908640000000,\xC0,,
0.017915360000000,\0,,
0.017922080000000,\0,,
0.017928800000000,\0,,
0.017935520000000,\0,,
0.017942240000000,\0,,
0.017948960000000,\0,,
0.017955680000000,\0,,
0.017962400000000,\0,,
0.017969120000000,\0,,
0.017975840000000,\0,,
0.017982560000000,\0,,
0.017989280000000,\0,,
0.017996000000000,\0,,
0.018002720000000,0,,
0.018009440000000,(,,
0.018143200000000,\x05,,
0.018149920000000,\0,,
0.018156640000000,\0,,
0.018163360000000,\0,,
0.018170080000000,\0,,
0.018176800000000,\0,,
0.018183520000000,\0,,
0.018190240000000,\0,,
0.018196960000000,\0,,
0.018203680000000,\0,,
0.018210400000000,\0,,
0.018217120000000,\0,,
0.018223840000000,\0,,
0.018230560000000,\0,,
0.018237280000000,\0,,
0.018244000000000,\0,,
0.018250720000000,\0,,
0.018257440000000,\0,,
0.018264160000000,\0,,
0.018270880000000,\0,,
0.018277600000000,},,
0.023735840000000,\0,,
0.023742560000000,\x1D,,
0.023749280000000,\x07,,
0.023756000000000,\xF8,,
0.023762720000000,w,,
0.023769440000000,\0,,
0.023776160000000,\x80,,
0.023782880000000,\x97,,
0.023789600000000,\x0F,,
0.023796320000000,\0,,
0.023803040000000,\0,,
0.023809760000000,\0,,
0.023816480000000,\0,,
0.023823200000000,\xC0,,
0.023829920000000,\0,,
0.023836640000000,\0,,
0.023843360000000,\0,,
0.023850080000000,\0,,
0.023856800000000,\0,,
0.023863520000000,\0,,
0.023870240000000,\0,,
0.023876960000000,\0,,
0.023883680000000,\0,,
0.023890400000000,\0,,
0.023897120000000,\0,,
0.023903840000000,\0,,
0.023910560000000,\0,,
0.023917280000000,0,,
0.023924000000000,(,,
0.024057440000000,\x05,,
0.024064160000000,\0,,
0.024070880000000,\0,,
0.024077600000000,\0,,
0.024084320000000,\0,,
0.024091040000000,\0,,
0.024097760000000,\0,,
0.024104480000000,\0,,
0.024111200000000,\0,,
0.024117920000000,\0,,
0.024124640000000,\0,,
0.024131360000000,\0,,
0.024138080000000,\0,,
0.024144800000000,\0,,
0.024151520000000,\0,,
0.024158240000000,\0,,
0.024164960000000,\0,,
0.024171680000000,\0,,
0.024178400000000,\0,,
0.024185120000000,\0,,
0.024191840000000,},,
0.027089600000000,\0,,
0.027096320000000,\x1D,,
0.027103040000000,\x07,,
0.027109760000000,\xF8,,
0.027116480000000,w,,
0.027123200000000,\0,,
0.027129920000000,\x80,,
0.027136640000000,\x97,,
0.027143360000000,\x0F,,
0.027150080000000,\0,,
0.027156800000000,\0,,
0.027163520000000,\0,,
0.027170240000000,\0,,
0.027176960000000,\xC0,,
0.027183680000000,\0,,
0.027190400000000,\0,,
0.027197120000000,\0,,
0.027203840000000,\0,,
0.027210560000000,\0,,
0.027217280000000,\0,,
0.027224000000000,\0,,
0.027230720000000,\0,,
0.027237440000000,\0,,
0.027244160000000,\0,,
0.027250880000000,\0,,
0.027257600000000,\0,,
0.027264320000000,\0,,
0.027271040000000,0,,
0.027277760000000,(,,
0.027410880000000,\x05,,
0.027417440000000,\0,,
0.027424160000000,\0,,
0.027430880000000,\0,,
0.027437600000000,\0,,
0.027444320000000,\0,,
0.027451040000000,\0,,
0.027457760000000,\0,,
0.027464480000000,\0,,
0.027471200000000,\0,,
0.027477920000000,\0,,
0.027484640000000,\0,,
0.027491360000000,\0,,
0.027498080000000,\0,,
0.027504800000000,\0,,
0.027511520000000,\0,,
0.027518240000000,\0,,
0.027524960000000,\0,,
0.027531680000000,\0,,
0.027538400000000,\0,,
0.027545120000000,},,
0.030443200000000,\0,,
0.030449760000000,\x1D,,
0.030456480000000,\x07,,
0.030463200000000,\xF8,,
0.030469920000000,w,,
0.030476640000000,\0,,
0.030483360000000,\x80,,
0.030490080000000,\x97,,
0.030496800000000,\x0F,,
0.030503520000000,\0,,
0.030510240000000,\0,,
0.030516960000000,\0,,
0.030523680000000,\0,,
0.030530400000000,\xC0,,
0.030537120000000,\0,,
0.030543840000000,\0,,
0.030550560000000,\0,,
0.030557280000000,\0,,
0.030564000000000,\0,,
0.030570720000000,\0,,
0.030577440000000,\0,,
0.030584160000000,\0,,
0.030590880000000,\0,,
0.030597600000000,\0,,
0.030604320000000,\0,,
0.030611040000000,\0,,
0.030617760000000,\0,,
0.030624480000000,0,,
0.030631200000000,(,,
0.030764800000000,\x05,,
0.030771520000000,\0,,
0.030778240000000,\0,,
0.030784960000000,\0,,
0.030791680000000,\0,,
0.030798400000000,\0,,
0.030805120000000,\0,,
0.030811680000000,\0,,
0.030818400000000,\0,,
0.030825120000000,\0,,
0.030831840000000,\0,,
0.030838560000000,\0,,
0.030845280000000,\0,,
0.030852000000000,\0,,
0.030858720000000,\0,,
0.030865440000000,\0,,
0.030872160000000,\0,,
0.030878880000000,\0,,
0.030885600000000,\0,,
0.030892320000000,\0,,
0.030899040000000,},,
0.036357920000000,\0,,
0.036364640000000,\x1D,,
0.036371360000000,\x07,,
0.036378080000000,\xF8,,
0.036384800000000,w,,
0.036391520000000,\0,,
0.036398240000000,\x80,,
0.036404960000000,\x97,,
0.036411680000000,\x0F,,
0.036418400000000,\0,,
0.036425120000000,\0,,
0.036431840000000,\0,,
0.036438560000000,\0,,
0.036445280000000,\xC0,,
0.036452000000000,\0,,
0.036458720000000,\0,,
0.036465440000000,\0,,
0.036472160000000,\0,,
0.036478880000000,\0,,
0.036485600000000,\0,,
0.036492320000000,\0,,
0.036499040000000,\0,,
0.036505760000000,\0,,
0.036512480000000,\0,,
0.036519200000000,\0,,
0.036525920000000,\0,,
0.036532640000000,\0,,
0.036539360000000,0,,
0.036546080000000,(,,
0.036679200000000,\x05,,
0.036685920000000,\0,,
0.036692640000000,\0,,
0.036699360000000,\0,,
0.036706080000000,\0,,
0.036712800000000,\0,,
0.036719520000000,\0,,
0.036726240000000,\0,,
0.036732960000000,\0,,
0.036739680000000,\0,,
0.036746400000000,\0,,
0.036753120000000,\0,,
0.036759840000000,\0,,
0.036766560000000,\0,,
0.036773280000000,\0,,
0.036780000000000,\0,,
0.036786720000000,\0,,
0.036793440000000,\0,,
0.036800160000000,\0,,
0.036806880000000,\0,,
0.036813600000000,},,
0.039711680000000,\0,,
0.039718240000000,\x1D,,
0.039724960000000,\x07,,
0.039731680000000,\xF8,,
0.039738400000000,w,,
0.039745120000000,\0,,
0.039751840000000,\x80,,
0.039758560000000,\x97,,
0.039765280000000,\x0F,,
0.039772000000000,\0,,
0.039778720000000,\0,,
0.039785440000000,\0,,
0.039792160000000,\0,,
0.039798880000000,\xC0,,
0.039805600000000,\0,,
0.039812320000000,\0,,
0.039819040000000,\0,,
0.039825760000000,\0,,
0.039832480000000,\0,,
0.039839200000000,\0,,
0.039845920000000,\0,,
0.039852640000000,\0,,
0.039859360000000,\0,,
0.039866080000000,\0,,
0.039872800000000,\0,,
0.039879520000000,\0,,
0.039886240000000,\0,,
0.039892960000000,0,,
0.039899680000000,(,,
0.040032640000000,\x05,,
0.040039360000000,\0,,
0.040046080000000,\0,,
0.040052800000000,\0,,
0.040059520000000,\0,,
0.040066240000000,\0,,
0.040072960000000,\0,,
0.040079680000000,\0,,
0.040086400000000,\0,,
0.040093120000000,\0,,
0.040099840000000,\0,,
0.040106560000000,\0,,
0.040113280000000,\0,,
0.040120000000000,\0,,
0.040126720000000,\0,,
0.040133440000000,\0,,
0.040140160000000,\0,,
0.040146880000000,\0,,
0.040153600000000,\0,,
0.040160320000000,\0,,
0.040167040000000,},,
0.043065440000000,\0,,
0.043072160000000,\x1D,,
0.043078880000000,\x07,,
0.043085600000000,\xF8,,
0.043092320000000,w,,
0.043099040000000,\0,,
0.043105760000000,\x80,,
0.043112480000000,\x97,,
0.043119200000000,\x0F,,
0.043125920000000,\0,,
0.043132640000000,\0,,
0.043139360000000,\0,,
0.043146080000000,\0,,
0.043152800000000,\xC0,,
0.043159520000000,\0,,
0.043166240000000,\0,,
0.043172960000000,\0,,
0.043179680000000,\0,,
0.043186400000000,\0,,
0.043193120000000,\0,,
0.043199840000000,\0,,
0.043206560000000,\0,,
0.043213280000000,\0,,
0.043220000000000,\0,,
0.043226720000000,\0,,
0.043233440000000,\0,,
0.043240160000000,\0,,
0.043246880000000,0,,
0.043253600000000,(,,
0.043384800000000,\x05,,
0.043391520000000,\0,,
0.043398240000000,\0,,
0.043404960000000,\0,,
0.043411680000000,\0,,
0.043418400000000,\0,,
0.043425120000000,\0,,
0.043431840000000,\0,,
0.043438560000000,\0,,
0.043445280000000,\0,,
0.043452000000000,\0,,
0.043458720000000,\0,,
0.043465440000000,\0,,
0.043472160000000,\0,,
0.043478880000000,\0,,
0.043485600000000,\0,,
0.043492320000000,\0,,
0.043499040000000,\0,,
0.043505760000000,\0,,
0.043512480000000,\0,,
0.043519200000000,},,
0.048979200000000,\0,,
0.048985920000000,\x1D,,
0.048992640000000,\x07,,
0.048999360000000,\xF8,,
0.049006080000000,w,,
0.049012800000000,\0,,
0.049019520000000,\x80,,
0.049026240000000,\x97,,
0.049032960000000,\x0F,,
0.049039680000000,\0,,
0.049046400000000,\0,,
0.049053120000000,\0,,
0.049059840000000,\0,,
0.049066560000000,\xC0,,
0.049073280000000,\0,,
0.049080000000000,\0,,
0.049086720000000,\0,,
0.049093440000000,\0,,
0.049100160000000,\0,,
0.049106880000000,\0,,
0.049113600000000,\0,,
0.049120320000000,\0,,
0.049127040000000,\0,,
0.049133760000000,\0,,
0.049140480000000,\0,,
0.049147200000000,\0,,
0.049153920000000,\0,,
0.049160640000000,0,,
0.049167360000000,(,,
0.049300960000000,\x05,,
0.049307680000000,\0,,
0.049314400000000,\0,,
0.049321120000000,\0,,
0.049327840000000,\0,,
0.049334560000000,\0,,
0.049341280000000,\0,,
0.049348000000000,\0,,
0.049354720000000,\0,,
0.049361440000000,\0,,
0.049368160000000,\0,,
0.049374880000000,\0,,
0.049381600000000,\0,,
0.049388320000000,\0,,
0.049395040000000,\0,,
0.049401760000000,\0,,
0.049408480000000,\0,,
0.049415200000000,\0,,
0.049421920000000,\0,,
0.049428640000000,\0,,
0.049435360000000,},,
0.052333600000000,\0,,
0.052340320000000,\x1D,,
0.052347040000000,\x07,,
0.052353760000000,\xF8,,
0.052360480000000,w,,
0.052367200000000,\0,,
0.052373920000000,\x80,,
0.052380640000000,\x97,,
0.052387360000000,\x0F,,
0.052394080000000,\0,,
0.052400800000000,\0,,
0.052407520000000,\0,,
0.052414240000000,\0,,
0.052420960000000,\xC0,,
0.052427680000000,\0,,
0.052434400000000,\0,,
0.052441120000000,\0,,
0.052447840000000,\0,,
0.052454560000000,\0,,
0.052461120000000,\0,,
0.052467840000000,\0,,
0.052474560000000,\0,,
0.052481280000000,\0,,
0.052488000000000,\0,,
0.052494720000000,\0,,
0.052501440000000,\0,,
0.052508160000000,\0,,
0.052514880000000,0,,
0.052521600000000,(,,
0.052655360000000,\x05,,
0.052662080000000,\0,,
0.052668800000000,\0,,
0.052675520000000,\0,,
0.052682240000000,\0,,
0.052688960000000,\0,,
0.052695680000000,\0,,
0.052702400000000,\0,,
0.052709120000000,\0,,
0.052715840000000,\0,,
0.052722560000000,\0,,
0.052729280000000,\0,,
0.052736000000000,\0,,
0.052742720000000,\0,,
0.052749440000000,\0,,
0.052756160000000,\0,,
0.052762880000000,\0,,
0.052769600000000,\0,,
0.052776320000000,\0,,
0.052783040000000,\0,,
0.052789760000000,},,
0.055687360000000,\0,,
0.055694080000000,\x1D,,
0.055700800000000,\x07,,
0.055707520000000,\xF8,,
0.055714240000000,w,,
0.055720960000000,\0,,
0.055727680000000,\x80,,
0.055734400000000,\x97,,
0.055741120000000,\x0F,,
0.055747840000000,\0,,
0.055754560000000,\0,,
0.055761280000000,\0,,
0.055768000000000,\0,,
0.055774720000000,\xC0,,
0.055781440000000,\0,,
0.055788000000000,\0,,
0.055794720000000,\0,,
0.055801440000000,\0,,
0.055808160000000,\0,,
0.055814880000000,\0,,
0.055821600000000,\0,,
0.055828320000000,\0,,
0.055835040000000,\0,,
0.055841760000000,\0,,
0.055848480000000,\0,,
0.055855200000000,\0,,
0.055861920000000,\0,,
0.055868640000000,0,,
0.055875360000000,(,,
0.056009600000000,\x05,,
0.056016320000000,\0,,
0.056023040000000,\0,,
0.056029760000000,\0,,
0.056036480000000,\0,,
0.056043200000000,\0,,
0.056049920000000,\0,,
0.056056640000000,\0,,
0.056063360000000,\0,,
0.056070080000000,\0,,
0.056076800000000,\0,,
0.056083520000000,\0,,
0.056090240000000,\0,,
0.056096960000000,\0,,
0.056103680000000,\0,,
0.056110400000000,\0,,
0.056117120000000,\0,,
0.056123840000000,\0,,
0.056130560000000,\0,,
0.056137280000000,\0,,
0.056144000000000,},,
0.061601120000000,\0,,
0.061607840000000,\x1D,,
0.061614560000000,\x07,,
0.061621280000000,\xF8,,
0.061628000000000,w,,
0.061634720000000,\0,,
0.061641440000000,\x80,,
0.061648160000000,\x97,,
0.061654880000000,\x0F,,
0.061661600000000,\0,,
0.061668320000000,\0,,
0.061675040000000,\0,,
0.061681760000000,\0,,
0.061688320000000,\xC0,,
0.061695040000000,\0,,
0.061701760000000,\0,,
0.061708480000000,\0,,
0.061715200000000,\0,,
0.061721920000000,\0,,
0.061728640000000,\0,,
0.061735360000000,\0,,
0.061742080000000,\0,,
0.061748800000000,\0,,
0.061755520000000,\0,,
0.061762240000000,\0,,
0.061768960000000,\0,,
0.061775680000000,\0,,
0.061782400000000,0,,
0.061789120000000,(,,
0.061922720000000,\x05,,
0.061929440000000,\0,,
0.061936160000000,\0,,
0.061942880000000,\0,,
0.061949600000000,\0,,
0.061956320000000,\0,,
0.061963040000000,\0,,
0.061969760000000,\0,,
0.061976480000000,\0,,
0.061983200000000,\0,,
0.061989920000000,\0,,
0.061996640000000,\0,,
0.062003360000000,\0,,
0.062010080000000,\0,,
0.062016800000000,\0,,
0.062023520000000,\0,,
0.062030240000000,\0,,
0.062036960000000,\0,,
0.062043680000000,\0,,
0.062050400000000,\0,,
0.062057120000000,},,
0.064955200000000,\0,,
0.064961920000000,\x1D,,
0.064968640000000,\x07,,
0.064975360000000,\xF8,,
0.064982080000000,w,,
0.064988800000000,\0,,
0.064995360000000,\x80,,
0.065002080000000,\x97,,
0.065008800000000,\x0F,,
0.065015520000000,\0,,
0.065022240000000,\0,,
0.065028960000000,\0,,
0.065035680000000,\0,,
0.065042400000000,\xC0,,
0.065049120000000,\0,,
0.065055840000000,\0,,
0.065062560000000,\0,,
0.065069280000000,\0,,
0.065076000000000,\0,,
0.065082720000000,\0,,
0.065089440000000,\0,,
0.065096160000000,\0,,
0.065102880000000,\0,,
0.065109600000000,\0,,
0.065116320000000,\0,,
0.065123040000000,\0,,
0.065129760000000,\0,,
0.065136480000000,0,,
0.065143200000000,(,,
0.065277120000000,\x05,,
0.065283840000000,\0,,
0.065290560000000,\0,,
0.065297280000000,\0,,
0.065304000000000,\0,,
0.065310720000000,\0,,
0.065317440000000,\0,,
0.065324160000000,\0,,
0.065330880000000,\0,,
0.065337600000000,\0,,
0.065344320000000,\0,,
0.065351040000000,\0,,
0.065357760000000,\0,,
0.065364480000000,\0,,
0.065371200000000,\0,,
0.065377920000000,\0,,
0.065384640000000,\0,,
0.065391360000000,\0,,
0.065398080000000,\0,,
0.065404800000000,\0,,
0.065411520000000,},,
0.068309600000000,\0,,
0.068316320000000,\x1D,,
0.068323040000000,\x07,,
0.068329760000000,\xF8,,
0.068336480000000,w,,
0.068343200000000,\0,,
0.068349920000000,\x80,,
0.068356640000000,\x97,,
0.068363360000000,\x0F,,
0.068370080000000,\0,,
0.068376800000000,\0,,
0.068383520000000,\0,,
0.068390240000000,\0,,
0.068396960000000,\xC0,,
0.068403680000000,\0,,
0.068410400000000,\0,,
0.068417120000000,\0,,
0.068423840000000,\0,,
0.068430560000000,\0,,
0.068437280000000,\0,,
0.068444000000000,\0,,
0.068450720000000,\0,,
0.068457440000000,\0,,
0.068464160000000,\0,,
0.068470880000000,\0,,
0.068477600000000,\0,,
0.068484320000000,\0,,
0.068491040000000,0,,
0.068497760000000,(,,
0.068631360000000,\x05,,
0.068638080000000,\0,,
0.068644800000000,\0,,
0.068651520000000,\0,,
0.068658240000000,\0,,
0.068664960000000,\0,,
0.068671680000000,\0,,
0.068678400000000,\0,,
0.068685120000000,\0,,
0.068691840000000,\0,,
0.068698560000000,\0,,
0.068705280000000,\0,,
0.068712000000000,\0,,
0.068718720000000,\0,,
0.068725440000000,\0,,
0.068732160000000,\0,,
0.068738880000000,\0,,
0.068745600000000,\0,,
0.068752320000000,\0,,
0.068759040000000,\0,,
0.068765760000000,},,
0.074223200000000,\0,,
0.074229920000000,\x1D,,
0.074236640000000,\x07,,
0.074243360000000,\xF8,,
0.074250080000000,w,,
0.074256800000000,\0,,
0.074263520000000,\x80,,
0.074270240000000,\x97,,
