Time [s],Value,Parity Error,Framing Error
0.065625440000000,0x9B,,
0.066146240000000,0x9B,,
0.066667040000000,0x03,,
0.067187840000000,0xE8,,
0.067708640000000,0x01,,
0.068229440000000,0x08,,
0.068750240000000,0x5B,,
0.069271040000000,0x00,,
0.069791840000000,0x01,,
0.070312640000000,0x00,,
0.070833440000000,0x21,,
0.071354240000000,0x21,,
0.071875040000000,0xB9,,
0.265611520000000,0x9B,,
0.266132320000000,0x00,,
0.266653120000000,0x03,,
0.267173920000000,0x31,,
0.267694720000000,0x00,,
0.268215520000000,0x00,,
0.268736320000000,0x00,,
0.269257120000000,0x00,,
0.269777920000000,0x00,,
0.270298720000000,0x00,,
0.270819520000000,0x00,,
0.271340320000000,0x05,,
0.271861280000000,0x4C,,
0.272381920000000,0x00,,
0.272902720000000,0x00,,
0.273423520000000,0x0C,,
0.273944320000000,0xB4,,
0.274465120000000,0x00,,
0.274985920000000,0x00,,
0.275506720000000,0xB9,,
0.465596960000000,0x9B,,
0.466117760000000,0x9B,,
0.466638560000000,0x03,,
0.467159200000000,0xE8,,
0.467680000000000,0x01,,
0.468200800000000,0x08,,
0.468721600000000,0x5B,,
0.469242400000000,0x00,,
0.469763200000000,0x01,,
0.470284000000000,0x00,,
0.470804800000000,0x21,,
0.471325600000000,0x21,,
0.471846400000000,0xB9,,
0.665582560000000,0x9B,,
0.666103360000000,0x00,,
0.666624160000000,0x03,,
0.667144960000000,0x32,,
0.667665760000000,0x00,,
0.668186560000000,0x00,,
0.668707360000000,0x00,,
0.669228160000000,0x00,,
0.669748960000000,0x00,,
0.670269760000000,0x00,,
0.670790560000000,0x00,,
0.671311360000000,0x05,,
0.671832160000000,0x4A,,
0.672352960000000,0x00,,
0.672873760000000,0x00,,
0.673394560000000,0x0C,,
0.673915360000000,0xB4,,
0.674436160000000,0x00,,
0.674956960000000,0x00,,
0.675477760000000,0xB9,,
0.885564960000000,0x9B,,
0.886085760000000,0x9B,,
0.886606560000000,0x03,,
0.887127360000000,0xE8,,
0.887648160000000,0x01,,
0.888168960000000,0x08,,
0.888689760000000,0x5B,,
0.889210560000000,0x00,,
0.889731360000000,0x01,,
0.890252160000000,0x00,,
0.890772960000000,0x21,,
0.891293760000000,0x21,,
0.891814560000000,0xB9,,
1.085552160000000,0x9B,,
1.086072960000000,0x00,,
1.086593760000000,0x03,,
1.087114560000000,0x33,,
1.087635360000000,0x00,,
1.088156160000000,0x00,,
1.088676960000000,0x00,,
1.089197760000000,0x00,,
1.089718560000000,0x00,,
1.090239360000000,0x00,,
1.090760160000000,0x00,,
1.091280960000000,0x05,,
1.091801760000000,0x4B,,
1.092322560000000,0x00,,
1.092843360000000,0x00,,
1.093364160000000,0x0C,,
1.093884960000000,0xB4,,
1.094405760000000,0x00,,
1.094926560000000,0x00,,
1.095447360000000,0xB9,,
1.285535680000000,0x9B,,
1.286056480000000,0x9B,,
1.286577280000000,0x03,,
1.287098080000000,0xE8,,
1.287618880000000,0x01,,
1.288139680000000,0x08,,
1.288660320000000,0x5B,,
1.289181280000000,0x00,,
1.289701920000000,0x01,,
1.290222880000000,0x00,,
1.290743520000000,0x21,,
1.291264320000000,0x21,,
1.291785120000000,0xB9,,
1.485522880000000,0x9B,,
1.486043680000000,0x00,,
1.486564480000000,0x03,,
1.487085280000000,0x34,,
1.487606080000000,0x00,,
1.488126880000000,0x00,,
1.488647680000000,0x00,,
1.489168480000000,0x00,,
1.489689280000000,0x00,,
1.490210080000000,0x00,,
1.490730880000000,0x00,,
1.491251680000000,0x05,,
1.491772320000000,0x4B,,
1.492293120000000,0x00,,
1.492813920000000,0x00,,
1.493334720000000,0x0C,,
1.493855520000000,0xB4,,
1.494376320000000,0x00,,
1.494897120000000,0x00,,
1.495417920000000,0xB9,,
1.685508000000000,0x9B,,
1.686028800000000,0x9B,,
1.686549600000000,0x03,,
1.687070400000000,0xE8,,
1.687591200000000,0x01,,
1.688112000000000,0x08,,
1.688632800000000,0x5B,,
1.689153600000000,0x00,,
1.689674400000000,0x01,,
1.690195200000000,0x00,,
1.690716000000000,0x21,,
1.691236800000000,0x21,,
1.691757600000000,0xB9,,
1.905491680000000,0x9B,,
1.906012480000000,0x00,,
1.906533280000000,0x03,,
1.907054080000000,0x35,,
1.907574880000000,0x00,,
1.908095680000000,0x00,,
1.908616480000000,0x00,,
1.909137280000000,0x00,,
1.909658080000000,0x00,,
1.910178880000000,0x00,,
1.910699680000000,0x00,,
1.911220480000000,0x05,,
1.911741280000000,0x4A,,
1.912262080000000,0x00,,
1.912782880000000,0x00,,
1.913303520000000,0x0C,,
1.913824320000000,0xB4,,
1.914345280000000,0x00,,
1.914865920000000,0x00,,
1.915386720000000,0xB9,,
2.105476000000000,0x9B,,
2.105996800000000,0x9B,,
2.106517600000000,0x03,,
2.107038400000000,0xE8,,
2.107559200000000,0x01,,
2.108080000000000,0x08,,
2.108600800000000,0x5B,,
2.109121600000000,0x00,,
2.109642400000000,0x01,,
2.110163200000000,0x00,,
2.110684000000000,0x21,,
2.111204800000000,0x21,,
2.111725600000000,0xB9,,
2.305463680000000,0x9B,,
2.305984480000000,0x00,,
2.306505280000000,0x03,,
2.307026080000000,0x36,,
2.307546880000000,0x00,,
2.308067680000000,0x00,,
2.308588480000000,0x00,,
2.309109280000000,0x00,,
2.309630080000000,0x00,,
2.310150880000000,0x00,,
2.310671680000000,0x00,,
2.311192480000000,0x05,,
2.311713280000000,0x4B,,
2.312234080000000,0x00,,
2.312754880000000,0x00,,
2.313275680000000,0x0C,,
2.313796480000000,0xB4,,
2.314317280000000,0x00,,
2.314838080000000,0x00,,
2.315358880000000,0xB9,,
2.505447200000000,0x9B,,
2.505968000000000,0x9B,,
2.506488800000000,0x03,,
2.507009600000000,0xE8,,
2.507530400000000,0x01,,
2.508051200000000,0x08,,
2.508572000000000,0x5B,,
2.509092800000000,0x00,,
2.509613600000000,0x01,,
2.510134400000000,0x00,,
2.510655200000000,0x21,,
2.511176000000000,0x21,,
2.511696800000000,0xB9,,
2.705435040000000,0x9B,,
2.705955840000000,0x00,,
2.706476640000000,0x03,,
2.706997440000000,0x37,,
2.707518240000000,0x00,,
2.708039040000000,0x00,,
2.708559840000000,0x00,,
2.709080640000000,0x00,,
2.709601440000000,0x00,,
2.710122240000000,0x00,,
2.710643040000000,0x00,,
2.711163840000000,0x05,,
2.711684640000000,0x4B,,
2.712205440000000,0x00,,
2.712726240000000,0x00,,
2.713247040000000,0x0C,,
2.713767840000000,0xB3,,
2.714288640000000,0x00,,
2.714809440000000,0x00,,
2.715330080000000,0xB9,,
2.925416640000000,0x9B,,
2.925937440000000,0x9B,,
2.926458240000000,0x03,,
2.926979040000000,0xE8,,
2.927499680000000,0x01,,
2.928020480000000,0x08,,
2.928541280000000,0x5B,,
2.929062080000000,0x00,,
2.929582880000000,0x01,,
2.930103680000000,0x00,,
2.930624480000000,0x21,,
2.931145280000000,0x21,,
2.931666080000000,0xB9,,
3.125403840000000,0x9B,,
3.125924640000000,0x00,,
3.126445440000000,0x03,,
3.126966240000000,0x38,,
3.127487040000000,0x00,,
3.128007840000000,0x00,,
3.128528640000000,0x00,,
3.129049440000000,0x00,,
3.129570240000000,0x00,,
3.130091040000000,0x00,,
3.130611840000000,0x00,,
3.131132640000000,0x05,,
3.131653440000000,0x4B,,
3.132174240000000,0x00,,
3.132695040000000,0x00,,
3.133215840000000,0x0C,,
3.133736640000000,0xB4,,
3.134257440000000,0x00,,
3.134778240000000,0x00,,
3.135299040000000,0xB9,,
3.325386720000000,0x9B,,
3.325907520000000,0x9B,,
3.326428320000000,0x03,,
3.326949120000000,0xE8,,
3.327469920000000,0x01,,
3.327990720000000,0x08,,
3.328511520000000,0x5B,,
3.329032320000000,0x00,,
3.329553120000000,0x01,,
3.330073920000000,0x00,,
3.330594720000000,0x21,,
3.331115520000000,0x21,,
3.331636320000000,0xB9,,
3.525373280000000,0x9B,,
3.525894080000000,0x00,,
3.526414880000000,0x03,,
3.526935680000000,0x39,,
3.527456480000000,0x00,,
3.527977280000000,0x00,,
3.528498080000000,0x00,,
3.529018880000000,0x00,,
3.529539680000000,0x00,,
3.530060480000000,0x00,,
3.530581280000000,0x00,,
3.531102080000000,0x05,,
3.531622880000000,0x4A,,
3.532143680000000,0x00,,
3.532664480000000,0x00,,
3.533185280000000,0x0C,,
3.533706080000000,0xB4,,
3.534226880000000,0x00,,
3.534747520000000,0x00,,
3.535268320000000,0xB9,,
3.725358080000000,0x9B,,
3.725878880000000,0x9B,,
3.726399680000000,0x03,,
3.726920480000000,0xE8,,
3.727441280000000,0x01,,
3.727962080000000,0x08,,
3.728482880000000,0x5B,,
3.729003680000000,0x00,,
3.729524480000000,0x01,,
3.730045280000000,0x00,,
3.730566080000000,0x21,,
3.731086880000000,0x21,,
3.731607680000000,0xB9,,
3.945342880000000,0x9B,,
3.945863680000000,0x00,,
3.946384480000000,0x03,,
3.946905280000000,0x3A,,
3.947426080000000,0x00,,
3.947946880000000,0x00,,
3.948467680000000,0x00,,
3.948988480000000,0x00,,
3.949509280000000,0x00,,
3.950030080000000,0x00,,
3.950550880000000,0x00,,
3.951071680000000,0x05,,
3.951592480000000,0x4B,,
3.952113280000000,0x00,,
3.952634080000000,0x00,,
3.953154880000000,0x0C,,
3.953675680000000,0xB4,,
3.954196480000000,0x00,,
3.954717280000000,0x00,,
3.955238080000000,0xB9,,
4.145328000000000,0x9B,,
4.145848800000000,0x9B,,
4.146369600000000,0x03,,
4.146890400000000,0xE8,,
4.147411200000000,0x01,,
4.147932000000000,0x08,,
4.148452800000000,0x5B,,
4.148973600000000,0x00,,
4.149494400000000,0x01,,
4.150015200000000,0x00,,
4.150536000000000,0x21,,
4.151056800000000,0x21,,
4.151577600000000,0xB9,,
4.245525600000000,0x9B,,
4.246046400000000,0x00,,
4.246567200000000,0x03,,
4.247088000000000,0x3B,,
4.247608800000000,0x03,,
4.248129600000000,0xE8,,
4.248650400000000,0x00,,
4.249171200000000,0x23,,
4.249692000000000,0x00,,
4.250212800000000,0x00,,
4.250733600000000,0x00,,
4.251254400000000,0x05,,
4.251775200000000,0x4B,,
4.252296000000000,0x00,,
4.252816640000000,0x00,,
4.253337440000000,0x0C,,
4.253858240000000,0xB4,,
4.254379040000000,0x0C,,
4.254899840000000,0xB4,,
4.286819200000000,0x9B,,
4.287340000000000,0x00,,
4.287860800000000,0x03,,
4.288381600000000,0x3C,,
4.288902400000000,0x03,,
4.289423520000000,0xE8,,
4.289944000000000,0x00,,
4.290464800000000,0x23,,
4.290985600000000,0x00,,
4.291506400000000,0x04,,
4.292027200000000,0xE3,,
4.292548000000000,0x05,,
4.293068800000000,0x4B,,
4.293589600000000,0x00,,
4.294110400000000,0x00,,
4.294631200000000,0x0C,,
4.295152000000000,0xB4,,
4.295672800000000,0x0C,,
4.296193600000000,0xB4,,
4.334199840000000,0x9B,,
4.334720640000000,0x00,,
4.335241440000000,0x03,,
4.335762240000000,0x3D,,
4.336283040000000,0x03,,
4.336803840000000,0xE8,,
4.337324640000000,0x00,,
4.337845440000000,0x23,,
4.338366240000000,0x00,,
4.338887040000000,0x09,,
4.339407840000000,0xC3,,
4.339928640000000,0x05,,
4.340449440000000,0x4B,,
4.340970080000000,0x00,,
4.341490880000000,0x00,,
4.342011680000000,0x0C,,
4.342532640000000,0xB4,,
4.343053280000000,0x0C,,
4.343574080000000,0xB4,,
4.386426880000000,0x9B,,
4.386947680000000,0x00,,
4.387468480000000,0x03,,
4.387989280000000,0x3E,,
4.388510080000000,0x03,,
4.389030880000000,0xE8,,
4.389551680000000,0x00,,
4.390072480000000,0x25,,
4.390593280000000,0x00,,
4.391114080000000,0x0A,,
4.391634880000000,0x49,,
4.392155680000000,0x05,,
4.392676480000000,0x4B,,
4.393197280000000,0x00,,
4.393718080000000,0x00,,
4.394238880000000,0x0C,,
4.394759680000000,0xB4,,
4.395280480000000,0x0C,,
4.395801280000000,0xB4,,
4.438895680000000,0x9B,,
4.439416480000000,0x00,,
4.439937280000000,0x03,,
4.440458080000000,0x3F,,
4.440978880000000,0x03,,
4.441499680000000,0xE8,,
4.442020480000000,0x00,,
4.442541280000000,0x29,,
4.443062080000000,0x00,,
4.443582880000000,0x0B,,
4.444103680000000,0x59,,
4.444624480000000,0x05,,
4.445145280000000,0x4B,,
4.445666080000000,0x00,,
4.446186880000000,0x00,,
4.446707680000000,0x0C,,
4.447228320000000,0xB4,,
4.447749120000000,0x0C,,
4.448269920000000,0xB4,,
4.488378240000000,0x9B,,
4.488899040000000,0x00,,
4.489419840000000,0x03,,
4.489940640000000,0x40,,
4.490461440000000,0x03,,
4.490982240000000,0xE8,,
4.491503040000000,0x00,,
4.492023840000000,0x29,,
4.492544640000000,0x00,,
4.493065440000000,0x0C,,
4.493586240000000,0x78,,
4.494107040000000,0x05,,
4.494627840000000,0x4B,,
4.495148640000000,0x00,,
4.495669440000000,0x00,,
4.496190240000000,0x0C,,
4.496711040000000,0xB4,,
4.497231840000000,0x0C,,
4.497752640000000,0xB4,,
4.539863680000000,0x9B,,
4.540384480000000,0x00,,
4.540905280000000,0x03,,
4.541426080000000,0x41,,
4.541946880000000,0x03,,
4.542467680000000,0xE8,,
4.542988480000000,0x00,,
4.543509280000000,0x29,,
4.544030080000000,0x00,,
4.544550880000000,0x0C,,
4.545071680000000,0x77,,
4.545592480000000,0x05,,
4.546113280000000,0x4B,,
4.546634080000000,0x00,,
4.547154880000000,0x00,,
4.547675680000000,0x0C,,
4.548196480000000,0xB4,,
4.548717280000000,0x0C,,
4.549238080000000,0xB4,,
4.589341760000000,0x9B,,
4.589862560000000,0x00,,
4.590383360000000,0x03,,
4.590904160000000,0x42,,
4.591424960000000,0x03,,
4.591945760000000,0xE8,,
4.592466400000000,0x00,,
4.592987200000000,0x2A,,
4.593508000000000,0x00,,
4.594028800000000,0x0C,,
4.594549600000000,0x8E,,
4.595070400000000,0x05,,
4.595591200000000,0x4B,,
4.596112000000000,0x00,,
4.596632800000000,0x00,,
4.597153600000000,0x0C,,
4.597674400000000,0xB4,,
4.598195200000000,0x0C,,
4.598716000000000,0xB4,,
4.640171040000000,0x9B,,
4.640691840000000,0x00,,
4.641212640000000,0x03,,
4.641733440000000,0x43,,
4.642254240000000,0x03,,
4.642775040000000,0xE8,,
4.643295840000000,0x00,,
4.643816640000000,0x2A,,
4.644337440000000,0x00,,
4.644858240000000,0x0C,,
4.645379040000000,0xE5,,
4.645899840000000,0x05,,
4.646420640000000,0x4B,,
4.646941440000000,0x00,,
4.647462240000000,0x00,,
4.647983040000000,0x0C,,
4.648503840000000,0xB4,,
4.649024640000000,0x0C,,
4.649545440000000,0xB4,,
4.691228640000000,0x9B,,
4.691749440000000,0x00,,
4.692270240000000,0x03,,
4.692791040000000,0x44,,
4.693311840000000,0x03,,
4.693832640000000,0xE8,,
4.694353440000000,0x00,,
4.694874240000000,0x2B,,
4.695395040000000,0x00,,
4.695915840000000,0x0C,,
4.696436640000000,0xF6,,
4.696957440000000,0x05,,
4.697478240000000,0x4B,,
4.697999040000000,0x00,,
4.698519840000000,0x00,,
4.699040640000000,0x0C,,
4.699561280000000,0xB4,,
4.700082080000000,0x0C,,
4.700602880000000,0xB4,,
4.741956480000000,0x9B,,
4.742477280000000,0x00,,
4.742998080000000,0x03,,
4.743518880000000,0x45,,
4.744039680000000,0x03,,
4.744560480000000,0xE8,,
4.745081280000000,0x00,,
4.745602080000000,0x2B,,
4.746122880000000,0x00,,
4.746643680000000,0x0D,,
4.747164480000000,0x48,,
4.747685280000000,0x05,,
4.748206080000000,0x4B,,
4.748726880000000,0x00,,
4.749247680000000,0x00,,
4.749768320000000,0x0C,,
4.750289280000000,0xB4,,
4.750810080000000,0x0C,,
4.751330720000000,0xB4,,
4.794731520000000,0x9B,,
4.795252480000000,0x00,,
4.795773120000000,0x03,,
4.796293920000000,0x46,,
4.796814720000000,0x03,,
4.797335520000000,0xE8,,
4.797856320000000,0x00,,
4.798377120000000,0x2C,,
4.798897920000000,0x00,,
4.799418720000000,0x0D,,
4.799939520000000,0x73,,
4.800460320000000,0x05,,
4.800981120000000,0x4B,,
4.801501920000000,0x00,,
4.802022720000000,0x00,,
4.802543520000000,0x0C,,
4.803064320000000,0xB4,,
4.803585120000000,0x0C,,
4.804105920000000,0xB4,,
4.844125600000000,0x9B,,
4.844646400000000,0x00,,
4.845167200000000,0x03,,
4.845688000000000,0x47,,
4.846208800000000,0x03,,
4.846729600000000,0xE8,,
4.847250400000000,0x00,,
4.847771200000000,0x2D,,
4.848292000000000,0x00,,
4.848812800000000,0x0D,,
4.849333600000000,0x8A,,
4.849854400000000,0x05,,
4.850375200000000,0x4B,,
4.850896000000000,0x00,,
4.851416800000000,0x00,,
4.851937600000000,0x0C,,
4.852458400000000,0xB4,,
4.852979200000000,0x0C,,
4.853500000000000,0xB4,,
4.896557280000000,0x9B,,
4.897078080000000,0x00,,
4.897598720000000,0x03,,
4.898119520000000,0x48,,
4.898640480000000,0x03,,
4.899161120000000,0xE8,,
4.899681920000000,0x00,,
4.900202720000000,0x2E,,
4.900723520000000,0x00,,
4.901244320000000,0x0E,,
4.901765120000000,0x0A,,
4.902285920000000,0x05,,
4.902806720000000,0x4B,,
4.903327520000000,0x00,,
4.903848320000000,0x00,,
4.904369120000000,0x0C,,
4.904889920000000,0xB4,,
4.905410720000000,0x0C,,
4.905931520000000,0xB4,,
4.947558400000000,0x9B,,
4.948079200000000,0x00,,
4.948600000000000,0x03,,
4.949120800000000,0x49,,
4.949641600000000,0x03,,
4.950162400000000,0xE8,,
4.950683200000000,0x00,,
4.951204000000000,0x2F,,
4.951724800000000,0x00,,
4.952245600000000,0x0E,,
4.952766400000000,0x83,,
4.953287200000000,0x05,,
4.953808000000000,0x4B,,
4.954328800000000,0x00,,
4.954849600000000,0x00,,
4.955370400000000,0x0C,,
4.955891200000000,0xB4,,
4.956412000000000,0x0C,,
4.956932640000000,0xB4,,
4.997325920000000,0x9B,,
4.997846720000000,0x00,,
4.998367520000000,0x03,,
4.998888320000000,0x4A,,
4.999408960000000,0x03,,
4.999929920000000,0xE8,,
5.000450560000000,0x00,,
5.000971360000000,0x31,,
5.001492160000000,0x00,,
5.002012960000000,0x0F,,
5.002533760000000,0x28,,
5.003054560000000,0x05,,
5.003575520000000,0x4B,,
5.004096160000000,0x00,,
5.004616960000000,0x00,,
5.005137760000000,0x0C,,
5.005658560000000,0xB4,,
5.006179360000000,0x0C,,
5.006700160000000,0xB4,,
5.047429120000000,0x9B,,
5.047949920000000,0x00,,
5.048470720000000,0x03,,
5.048991520000000,0x4B,,
5.049512320000000,0x03,,
5.050033120000000,0xE8,,
5.050553920000000,0x00,,
5.051074720000000,0x33,,
5.051595520000000,0x00,,
5.052116320000000,0x0F,,
5.052637120000000,0xE4,,
5.053157920000000,0x05,,
5.053678720000000,0x4B,,
5.054199520000000,0x00,,
5.054720320000000,0x00,,
5.055241120000000,0x0C,,
5.055761920000000,0xB4,,
5.056282720000000,0x0C,,
5.056803520000000,0xB4,,
5.098486080000000,0x9B,,
5.099006880000000,0x00,,
5.099527680000000,0x03,,
5.100048480000000,0x4C,,
5.100569280000000,0x03,,
5.101090080000000,0xE8,,
5.101610880000000,0x00,,
5.102131680000000,0x36,,
5.102652480000000,0x00,,
5.103173280000000,0x10,,
5.103694080000000,0xD7,,
5.104214880000000,0x05,,
5.104735680000000,0x4B,,
5.105256480000000,0x00,,
5.105777280000000,0x00,,
5.106298080000000,0x0C,,
5.106818880000000,0xB4,,
5.107339680000000,0x0C,,
5.107860480000000,0xB4,,
5.149574240000000,0x9B,,
5.150095040000000,0x00,,
5.150615840000000,0x03,,
5.151136640000000,0x4D,,
5.151657440000000,0x03,,
5.152178240000000,0xE8,,
5.152699040000000,0x00,,
5.153219840000000,0x38,,
5.153740640000000,0x00,,
5.154261440000000,0x11,,
5.154782240000000,0xC5,,
5.155303040000000,0x05,,
5.155823840000000,0x4B,,
5.156344640000000,0x00,,
5.156865440000000,0x00,,
5.157386240000000,0x0C,,
5.157907040000000,0xB4,,
5.158427840000000,0x0C,,
5.158948640000000,0xB4,,
5.200528320000000,0x9B,,
5.201049120000000,0x00,,
5.201569920000000,0x03,,
5.202090720000000,0x4E,,
5.202611520000000,0x03,,
5.203132320000000,0xE8,,
5.203653120000000,0x00,,
5.204173920000000,0x3B,,
5.204694720000000,0x00,,
5.205215520000000,0x12,,
5.205736320000000,0xA0,,
5.206257120000000,0x05,,
5.206777920000000,0x4B,,
5.207298720000000,0x00,,
5.207819520000000,0x00,,
5.208340320000000,0x0C,,
5.208861120000000,0xB4,,
5.209381920000000,0x0C,,
5.209902560000000,0xB4,,
5.253621600000000,0x9B,,
5.254142400000000,0x00,,
5.254663200000000,0x03,,
5.255184000000000,0x4F,,
5.255704800000000,0x03,,
5.256225600000000,0xE8,,
5.256746400000000,0x00,,
5.257267200000000,0x3D,,
5.257788000000000,0x00,,
5.258308800000000,0x13,,
5.258829600000000,0x91,,
5.259350720000000,0x05,,
5.259871200000000,0x4B,,
5.260392000000000,0x00,,
5.260912800000000,0x00,,
5.261433600000000,0x0C,,
5.261954400000000,0xB4,,
5.262475200000000,0x0C,,
5.262996000000000,0xB4,,
5.303958720000000,0x9B,,
5.304479520000000,0x00,,
5.305000320000000,0x03,,
5.305521120000000,0x50,,
5.306041920000000,0x03,,
5.306562560000000,0xE8,,
5.307083360000000,0x00,,
5.307604160000000,0x40,,
5.308124960000000,0x00,,
5.308645760000000,0x14,,
5.309166560000000,0x4F,,
5.309687360000000,0x05,,
5.310208160000000,0x4B,,
5.310728960000000,0x00,,
5.311249760000000,0x00,,
5.311770560000000,0x0C,,
5.312291360000000,0xB4,,
5.312812160000000,0x0C,,
5.313332960000000,0xB4,,
5.353727040000000,0x9B,,
5.354247840000000,0x00,,
5.354768640000000,0x03,,
5.355289440000000,0x51,,
5.355810240000000,0x03,,
5.356331040000000,0xE8,,
5.356851840000000,0x00,,
5.357372640000000,0x42,,
5.357893440000000,0x00,,
5.358414080000000,0x15,,
5.358934880000000,0x48,,
5.359455680000000,0x05,,
5.359976480000000,0x4B,,
5.360497280000000,0x00,,
5.361018080000000,0x00,,
5.361538880000000,0x0C,,
5.362059680000000,0xB4,,
5.362580480000000,0x0C,,
5.363101440000000,0xB4,,
5.405272000000000,0x9B,,
5.405792800000000,0x00,,
5.406313600000000,0x03,,
5.406834400000000,0x52,,
5.407355200000000,0x03,,
5.407876000000000,0xE8,,
5.408396800000000,0x00,,
5.408917600000000,0x45,,
5.409438240000000,0x00,,
5.409959040000000,0x16,,
5.410479840000000,0x35,,
5.411000640000000,0x05,,
5.411521440000000,0x4B,,
5.412042240000000,0x00,,
5.412563040000000,0x00,,
5.413083840000000,0x0C,,
5.413604640000000,0xB4,,
5.414125440000000,0x0C,,
