Time [s],Value,Parity Error,Framing Error
109.557104960000004,0x9B,,
109.590780800000005,0x00,,
109.609869119999999,0x00,,
109.610386399999996,0x00,,
109.613748799999996,0x00,,
109.614266079999993,0x6B,,
109.616231679999999,0x00,,
109.744313439999999,0x0A,,
109.744830719999996,0x89,,
109.745348000000007,0xF2,,
109.745865280000004,0x9B,,
109.746382720000000,0x00,,
109.746899999999997,0x00,,
109.747417279999993,0x01,,
109.747934560000004,0x00,,
109.748451840000001,0x6B,,
109.748969119999998,0x00,,
109.749486399999995,0x0A,,
109.750003680000006,0x89,,
109.750521120000002,0xF2,,
109.751038399999999,0x9B,,
109.751555679999996,0x00,,
109.752072960000007,0x00,,
109.752590240000004,0x02,,
109.753107520000000,0x00,,
109.753624799999997,0x6B,,
109.754142079999994,0x00,,
109.754659360000005,0x0A,,
109.755176640000002,0x89,,
109.755693919999999,0xF2,,
109.873636160000004,0x9B,,
109.874153440000001,0x00,,
109.874670719999997,0x00,,
109.875187999999994,0x03,,
109.875705280000005,0x00,,
109.876222560000002,0x6B,,
109.876739999999998,0x00,,
109.877257279999995,0x0A,,
109.877774560000006,0x89,,
109.878291840000003,0xF2,,
109.885430720000002,0x9B,,
109.885947999999999,0x00,,
109.886465279999996,0x00,,
109.890810560000006,0x04,,
109.891327840000002,0x00,,
109.891845119999999,0x6B,,
109.892362399999996,0x00,,
109.892879679999993,0x0A,,
109.893396960000004,0x89,,
109.893914240000001,0xF2,,
109.986923039999994,0x9B,,
109.987440320000005,0x00,,
109.987957600000001,0x00,,
109.988474879999998,0x05,,
109.988992159999995,0x00,,
109.989509440000006,0x6B,,
109.990026720000003,0x00,,
109.990544000000000,0x0A,,
109.991061279999997,0x89,,
109.991578559999994,0xF2,,
110.004097599999994,0x9B,,
110.004614880000005,0x00,,
110.005132160000002,0x00,,
110.005649599999998,0x06,,
110.006166879999995,0x00,,
110.006684160000006,0x6B,,
110.007201440000003,0x00,,
110.033014559999998,0x0A,,
110.033531839999995,0x89,,
110.034049120000006,0xF2,,
110.034566560000002,0x9B,,
110.035083839999999,0x00,,
110.035601119999995,0x00,,
110.036118400000007,0x07,,
110.036635680000003,0x00,,
110.058103680000002,0x6B,,
110.058620959999999,0x00,,
110.059138239999996,0x0A,,
110.059655520000007,0x89,,
110.060172800000004,0xF2,,
110.060690080000001,0x9B,,
110.061207359999997,0x00,,
110.088985600000001,0x00,,
110.089502879999998,0x08,,
110.090020159999995,0x00,,
110.090537440000006,0x6B,,
110.091054880000002,0x00,,
110.091572159999998,0x0A,,
110.092089439999995,0x89,,
110.092606720000006,0xF2,,
110.112884320000006,0x9B,,
110.113401760000002,0x00,,
110.113919039999999,0x00,,
110.114436319999996,0x09,,
110.114953600000007,0x00,,
110.115470880000004,0x6B,,
110.139939360000000,0x00,,
110.140456799999995,0x0A,,
110.140974080000007,0x89,,
110.141491360000003,0xF2,,
110.142008640000000,0x9B,,
110.142525919999997,0x00,,
110.143043199999994,0x00,,
110.164563040000004,0x0A,,
110.165080320000001,0x00,,
110.165597759999997,0x6B,,
110.166115039999994,0x00,,
110.166632320000005,0x0A,,
110.167149600000002,0x89,,
110.186910560000001,0xF2,,
110.187427839999998,0x9B,,
110.187945119999995,0x00,,
110.188462400000006,0x00,,
110.188979680000003,0x0B,,
110.189496960000000,0x00,,
110.208792000000003,0x6B,,
110.209309279999999,0x00,,
110.209826559999996,0x0A,,
110.210344000000006,0x89,,
110.210861280000003,0xF2,,
110.211378560000000,0x9B,,
110.229742560000005,0x00,,
110.230259840000002,0x00,,
110.230777119999999,0x0C,,
110.231294399999996,0x00,,
110.231811840000006,0x6B,,
110.232329120000003,0x00,,
110.249244480000002,0x0A,,
110.249761759999998,0x89,,
110.250279039999995,0xF2,,
110.250796320000006,0x9B,,
110.251313600000003,0x00,,
110.268694879999998,0x00,,
110.269212159999995,0x0D,,
110.269729440000006,0x00,,
110.270246720000003,0x6B,,
110.270764159999999,0x00,,
110.290938560000001,0x0A,,
110.291455839999998,0x89,,
110.291973119999994,0xF2,,
110.292490560000005,0x9B,,
110.293007840000001,0x00,,
110.293525119999998,0x00,,
110.310544160000006,0x0E,,
110.311061600000002,0x00,,
110.311578879999999,0x6B,,
110.312096159999996,0x00,,
110.312613440000007,0x0A,,
110.329529440000002,0x89,,
110.330046719999999,0xF2,,
110.330563999999995,0x9B,,
110.331081440000006,0x00,,
110.331598720000002,0x00,,
110.347583200000003,0x0F,,
110.348100639999998,0x00,,
110.348617919999995,0x6B,,
110.349135200000006,0x00,,
110.349652480000003,0x0A,,
110.364602239999996,0x89,,
110.365119519999993,0xF2,,
110.365636800000004,0x9B,,
110.366154080000001,0x00,,
110.366671359999998,0x00,,
110.381879359999999,0x10,,
110.382396639999996,0x00,,
110.382913919999993,0x6B,,
110.383431200000004,0x00,,
110.383948480000001,0x0A,,
110.399312480000006,0x89,,
110.399829760000003,0xF2,,
110.400347040000000,0x9B,,
110.400864479999996,0x00,,
110.401381760000007,0x00,,
110.416900799999993,0x11,,
110.417418080000004,0x00,,
110.417935360000001,0x6B,,
110.418452639999998,0x00,,
110.418969919999995,0x0A,,
110.434591519999998,0x89,,
110.435108799999995,0xF2,,
110.435626080000006,0x9B,,
110.436143360000003,0x00,,
110.436660639999999,0x00,,
110.452851519999996,0x12,,
110.453368800000007,0x00,,
110.453886240000003,0x6B,,
110.454403520000000,0x00,,
110.454920799999996,0x0A,,
110.470646079999995,0x89,,
110.471163360000006,0xF2,,
110.471680640000002,0x9B,,
110.472197919999999,0x00,,
110.472715199999996,0x00,,
110.487716640000002,0x13,,
110.488233919999999,0x00,,
110.488751199999996,0x6B,,
110.489268480000007,0x00,,
110.489785760000004,0x0A,,
110.503804959999997,0x89,,
110.504322400000007,0xF2,,
110.504839680000003,0x9B,,
110.505356960000000,0x00,,
110.519944960000004,0x00,,
110.520462400000000,0x14,,
110.520979679999996,0x00,,
110.521496959999993,0x6B,,
110.535308959999995,0x00,,
110.535826240000006,0x0A,,
110.536343680000002,0x89,,
110.536860959999998,0xF2,,
110.551448800000003,0x9B,,
110.551966080000000,0x00,,
110.552483359999997,0x00,,
110.553000639999993,0x15,,
110.567433280000003,0x00,,
110.567950560000000,0x6B,,
110.568467839999997,0x00,,
110.568985119999994,0x0A,,
110.583210559999998,0x89,,
110.583727839999995,0xF2,,
110.584245120000006,0x9B,,
110.584762400000002,0x00,,
110.599091360000003,0x00,,
110.599608640000000,0x16,,
110.600125919999996,0x00,,
110.600643360000007,0x6B,,
110.613679200000007,0x00,,
110.614196480000004,0x0A,,
110.614713760000001,0x89,,
110.615231039999998,0xF2,,
110.625938880000007,0x9B,,
110.626456160000004,0x00,,
110.626973440000000,0x00,,
110.635663679999993,0x17,,
110.636180960000004,0x00,,
110.636698400000000,0x6B,,
110.643785440000002,0x00,,
110.644302719999999,0x0A,,
110.644819999999996,0x89,,
110.650717119999996,0xF2,,
110.651234400000007,0x9B,,
110.657027999999997,0x00,,
110.657545279999994,0x00,,
110.662924959999998,0x18,,
110.663442239999995,0x00,,
110.668149760000006,0x6B,,
110.668667040000003,0x00,,
110.673271040000003,0x0A,,
110.673788320000000,0x89,,
110.677978400000001,0xF2,,
110.678495839999997,0x9B,,
110.682582400000001,0x00,,
110.683099839999997,0x00,,
110.686720800000003,0x19,,
110.687238080000000,0x00,,
110.690859040000007,0x6B,,
110.691376320000003,0x00,,
110.694687040000005,0x0A,,
110.695204320000002,0x89,,
110.698721919999997,0xF2,,
110.702394720000001,0x9B,,
110.706119360000002,0x00,,
110.709585120000000,0x00,,
110.712999359999998,0x1A,,
110.716361759999998,0x00,,
110.719672480000000,0x6B,,
110.722827839999994,0x00,,
110.725983360000001,0x0A,,
110.728983520000000,0x89,,
110.731983839999998,0xF2,,
110.734880640000000,0x9B,,
110.737725600000005,0x00,,
110.740518879999996,0x00,,
110.743312320000001,0x1B,,
110.745950399999998,0x00,,
110.748588639999994,0x6B,,
110.751227040000003,0x00,,
110.753813440000002,0x0A,,
110.756296480000003,0x89,,
110.758883040000001,0xF2,,
110.761314400000003,0x9B,,
110.763849280000002,0x00,,
110.766280640000005,0x00,,
110.768711839999995,0x1C,,
110.771039840000000,0x00,,
110.773419360000005,0x6B,,
110.775695519999999,0x00,,
110.777971679999993,0x15,,
110.780351359999997,0x9F,,
110.782730880000003,0x8B,,
110.784955359999998,0x9B,,
110.787127999999996,0x00,,
110.789300639999993,0x00,,
110.791576640000002,0x1D,,
110.793749439999999,0x00,,
110.795973759999995,0x6B,,
110.798042879999997,0x00,,
110.800267360000007,0x15,,
110.802336639999993,0x6D,,
110.804509280000005,0x4C,,
110.806578560000005,0x9B,,
110.808751200000003,0x00,,
110.810768640000006,0x00,,
110.812837920000007,0x1E,,
110.814855359999996,0x00,,
110.816976319999995,0x6A,,
110.818942079999999,0x00,,
110.820183680000000,0x15,,
110.821269920000006,0x43,,
110.822097600000006,0x77,,
110.824063359999997,0x9B,,
110.826442880000002,0x00,,
110.828615520000000,0x00,,
110.830477759999994,0x1F,,
110.832391840000000,0x00,,
110.834254079999994,0x6A,,
110.836219839999998,0x00,,
110.838185600000003,0x15,,
110.839996159999998,0x32,,
110.841910080000005,0x9B,,
110.843927519999994,0x9B,,
110.845789760000002,0x00,,
110.847600319999998,0x00,,
110.849410879999994,0x20,,
110.851221440000003,0x00,,
110.853031840000000,0x6A,,
110.854790559999998,0x00,,
110.856652800000006,0x15,,
110.858463360000002,0x2F,,
110.860273759999998,0x7F,,
110.862136160000006,0x9B,,
110.863791520000007,0x00,,
110.865550240000005,0x00,,
110.867412479999999,0x21,,
110.869223039999994,0x00,,
110.870878239999996,0x6B,,
110.872533439999998,0x00,,
110.874240479999997,0x16,,
110.875844160000000,0x2D,,
110.877602879999998,0x34,,
110.881068639999995,0x9B,,
110.882723999999996,0x00,,
110.884431039999996,0x00,,
110.886138079999995,0x22,,
110.887741599999998,0x00,,
110.889345120000002,0x6B,,
110.891052160000001,0x00,,
110.892604160000005,0x16,,
110.894311040000005,0x2A,,
110.895811199999997,0xAF,,
110.900725440000002,0x9B,,
110.902432480000002,0x00,,
110.903984320000006,0x00,,
110.905536319999996,0x23,,
110.907036480000002,0x00,,
110.908640000000005,0x6B,,
110.910295360000006,0x00,,
110.911795519999998,0x16,,
110.913399040000002,0x28,,
110.914951040000005,0x58,,
110.921158559999995,0x9B,,
110.922813919999996,0x00,,
110.924107039999996,0x00,,
110.925555520000003,0x24,,
110.927107359999994,0x00,,
110.928659359999997,0x6B,,
110.930159520000004,0x00,,
110.931607839999998,0x16,,
110.933004639999993,0x26,,
110.934556479999998,0x96,,
110.940453759999997,0x9B,,
110.942005600000002,0x00,,
110.943402399999997,0x00,,
110.944850880000004,0x25,,
110.946195840000001,0x00,,
110.947540799999999,0x6A,,
110.949040800000006,0x00,,
110.950489279999999,0x16,,
110.951937760000007,0x24,,
110.953179199999994,0x9B,,
110.960524960000001,0x9B,,
110.961766400000002,0x00,,
110.963163039999998,0x00,,
110.964456319999996,0x26,,
110.966163199999997,0x00,,
110.967404799999997,0x6A,,
110.969163679999994,0x00,,
110.970715519999999,0x16,,
110.972008799999998,0x22,,
110.972888159999997,0x2F,,
110.979664799999995,0x9B,,
110.980699520000002,0x00,,
110.982199679999994,0x00,,
110.983285920000000,0x27,,
110.984837920000004,0x00,,
110.986079520000004,0x6B,,
110.987372800000003,0x00,,
110.988872959999995,0x16,,
110.990217920000006,0x20,,
110.991252480000000,0xD1,,
110.998184319999993,0x9B,,
110.999115520000004,0x00,,
111.000874240000002,0x00,,
111.001857119999997,0x28,,
111.003357280000003,0x00,,
111.004133280000005,0x6B,,
111.005736959999993,0x00,,
111.006668160000004,0x17,,
111.008426880000002,0x20,,
111.009358079999998,0x2E,,
111.018048800000003,0x9B,,
111.019600800000006,0x00,,
111.020945600000005,0x00,,
111.021773280000005,0x29,,
111.023273439999997,0x00,,
111.024101119999997,0x6A,,
111.025601280000004,0x00,,
111.026635839999997,0x17,,
111.028136000000003,0x1E,,
111.029429280000002,0x21,,
111.037861120000002,0x9B,,
111.038688800000003,0x00,,
111.040085599999998,0x00,,
111.041378719999997,0x2A,,
111.042620319999997,0x00,,
111.043706560000004,0x6A,,
111.044948000000005,0x00,,
111.045672159999995,0x17,,
111.047172320000001,0x1D,,
111.048517279999999,0xAE,,
111.056690560000007,0x9B,,
111.057414879999996,0x00,,
111.058811520000006,0x00,,
111.059690880000005,0x2B,,
111.061139359999999,0x00,,
111.062484319999996,0x6B,,
111.063570720000001,0x00,,
111.064657120000007,0x17,,
111.065795039999998,0x1C,,
111.066467520000003,0xC5,,
111.077071840000002,0x9B,,
111.078158239999993,0x00,,
111.079296159999998,0x00,,
111.080020320000003,0x2C,,
111.081416959999999,0x00,,
111.082710239999997,0x6B,,
111.083796480000004,0x00,,
111.084831039999997,0x17,,
111.086020800000000,0x1B,,
111.087003679999995,0xB1,,
111.095797439999998,0x9B,,
111.096883680000005,0x00,,
111.097970079999996,0x00,,
111.099004640000004,0x2D,,
111.100091039999995,0x00,,
111.101125600000003,0x6B,,
111.102211999999994,0x00,,
111.103349919999999,0x17,,
111.104384640000006,0x1A,,
111.105470879999999,0xB0,,
111.116127359999993,0x9B,,
111.117110080000003,0x00,,
111.118196479999995,0x00,,
111.119231040000003,0x2E,,
111.120213919999998,0x00,,
111.121352000000002,0x6A,,
111.122334879999997,0x00,,
111.123369440000005,0x18,,
111.124455839999996,0x19,,
111.125438720000005,0xF2,,
111.134853759999999,0x9B,,
111.135836639999994,0x00,,
111.136819520000003,0x00,,
111.137802399999998,0x2F,,
111.138785279999993,0x00,,
111.139819840000001,0x6B,,
111.140906079999993,0x00,,
111.141940640000001,0x18,,
111.142923519999997,0x19,,
111.143906400000006,0x0F,,
111.154924960000002,0x9B,,
111.155907839999998,0x00,,
111.156890720000007,0x00,,
111.157925280000001,0x30,,
111.158908159999996,0x00,,
111.159787519999995,0x6B,,
111.160770240000005,0x00,,
111.161753120000000,0x18,,
111.162787679999994,0x18,,
111.163770560000003,0x26,,
111.174375359999999,0x9B,,
111.175358239999994,0x00,,
111.176289440000005,0x00,,
111.177272320000000,0x31,,
111.178151679999999,0x00,,
111.179134559999994,0x6A,,
111.180117440000004,0x00,,
111.180996800000003,0x18,,
111.181979839999997,0x17,,
111.182910879999994,0x89,,
111.193308639999998,0x9B,,
111.194239679999995,0x00,,
111.195119199999993,0x00,,
111.195998560000007,0x32,,
111.196981440000002,0x00,,
111.197860800000001,0x6A,,
111.198843679999996,0x00,,
111.199723039999995,0x18,,
111.200705760000005,0x16,,
111.201585280000003,0xE1,,
111.213483040000000,0x9B,,
111.214310720000000,0x00,,
111.215241919999997,0x00,,
111.216173119999993,0x33,,
111.217052480000007,0x00,,
111.217931840000006,0x6B,,
111.218863040000002,0x00,,
111.219794239999999,0x18,,
111.220725279999996,0x16,,
111.221552959999997,0x0D,,
111.232364480000001,0x9B,,
111.233088800000004,0x00,,
111.234019840000002,0x00,,
111.234899360000000,0x34,,
111.235778719999999,0x00,,
111.236658079999998,0x6A,,
111.237537599999996,0x00,,
111.238416959999995,0x18,,
111.239296319999994,0x15,,
111.240175840000006,0x59,,
111.252176960000000,0x9B,,
111.253004640000000,0x00,,
111.253883999999999,0x00,,
111.254763359999998,0x35,,
111.255539360000000,0x00,,
111.256418719999999,0x6A,,
111.257246400000000,0x00,,
111.258125759999999,0x19,,
111.258901760000001,0x14,,
111.259781120000000,0xE9,,
111.271523680000001,0x9B,,
111.272247840000006,0x00,,
111.273127360000004,0x00,,
111.274006720000003,0x36,,
111.274730880000007,0x00,,
111.275610240000006,0x6B,,
111.276386079999995,0x00,,
111.277213759999995,0x19,,
111.278041439999996,0x14,,
111.278869119999996,0x1F,,
111.291025120000000,0x9B,,
111.291852800000001,0x00,,
111.292628640000004,0x00,,
111.293404640000006,0x37,,
111.294284000000005,0x00,,
111.295008159999995,0x6B,,
111.295835839999995,0x00,,
111.296611839999997,0x19,,
111.297439359999998,0x13,,
111.298267039999999,0xAC,,
111.310940799999997,0x9B,,
111.311768479999998,0x00,,
111.312492800000001,0x00,,
111.313320320000003,0x38,,
111.314096320000004,0x00,,
111.314872159999993,0x6B,,
111.315699839999994,0x00,,
111.316475839999995,0x19,,
111.317251679999998,0x13,,
111.318027680000000,0x2F,,
111.329977119999995,0x9B,,
111.330753119999997,0x00,,
111.331580799999998,0x00,,
111.332356640000000,0x39,,
111.333132480000003,0x00,,
111.333960160000004,0x6B,,
111.334736160000006,0x00,,
111.335563840000006,0x1A,,
111.336339679999995,0x13,,
111.337167359999995,0xDE,,
111.350047840000002,0x9B,,
111.350823840000004,0x00,,
111.351651520000004,0x00,,
111.352427520000006,0x3A,,
111.353203359999995,0x00,,
111.354031039999995,0x6B,,
111.354858719999996,0x00,,
111.355686399999996,0x1A,,
111.356462239999999,0x13,,
111.357289919999999,0x4F,,
111.369446240000002,0x9B,,
111.370273920000002,0x00,,
111.371049760000005,0x00,,
111.371825759999993,0x3B,,
111.372653439999993,0x00,,
111.373481119999994,0x6A,,
111.374308799999994,0x00,,
111.375136479999995,0x1B,,
111.375964159999995,0x13,,
111.376739999999998,0x6E,,
111.388999839999997,0x9B,,
111.389775680000000,0x00,,
111.390603360000000,0x00,,
111.391431040000001,0x3C,,
111.392207040000002,0x00,,
111.393086400000001,0x6A,,
111.393862240000004,0x00,,
111.394689920000005,0x1B,,
111.395517600000005,0x13,,
111.396345280000006,0x84,,
111.408604800000006,0x9B,,
111.409432480000007,0x00,,
111.410260160000007,0x00,,
111.411087839999993,0x3D,,
111.411863839999995,0x00,,
111.412743199999994,0x6B,,
111.413519199999996,0x00,,
111.414346879999997,0x1B,,
111.415174399999998,0x13,,
111.416002079999998,0xA5,,
111.427537599999994,0x9B,,
111.428313599999996,0x00,,
111.429141119999997,0x00,,
111.429968799999997,0x3E,,
111.430744799999999,0x00,,
111.431624159999998,0x6A,,
111.432400000000001,0x00,,
111.433227680000002,0x1B,,
111.434055360000002,0x13,,
111.434883040000003,0xB0,,
111.447246399999997,0x9B,,
111.448022399999999,0x00,,
111.448850080000000,0x00,,
111.449677760000000,0x3F,,
111.450505440000001,0x00,,
111.451333120000001,0x6B,,
111.452109120000003,0x00,,
111.452988480000002,0x1C,,
111.453764320000005,0x13,,
111.454643680000004,0xAF,,
111.467007039999999,0x9B,,
111.467834719999999,0x00,,
111.468662399999999,0x00,,
111.469490080000000,0x40,,
111.470265920000003,0x00,,
111.471145280000002,0x6B,,
111.471972960000002,0x00,,
111.472800640000003,0x1C,,
111.473628320000003,0x13,,
111.474404160000006,0xCD,,
111.486094719999997,0x9B,,
111.486870719999999,0x00,,
111.487646560000002,0x00,,
111.488525920000001,0x41,,
111.489301920000003,0x00,,
111.490129600000003,0x6A,,
111.490957120000004,0x00,,
111.491784800000005,0x1C,,
111.492612480000005,0x13,,
111.493440160000006,0xD0,,
111.505906560000000,0x9B,,
111.506734240000000,0x00,,
111.507561920000001,0x00,,
111.508389600000001,0x42,,
111.509217280000001,0x00,,
111.510044960000002,0x6A,,
111.510872640000002,0x00,,
111.511700320000003,0x1D,,
111.512528000000003,0x13,,
111.513407360000002,0xEB,,
111.525149760000005,0x9B,,
111.525770559999998,0x00,,
111.526649919999997,0x00,,
111.527477599999997,0x43,,
111.528305279999998,0x00,,
111.529132799999999,0x6B,,
111.529960480000000,0x00,,
111.530788160000000,0x1D,,
111.531615840000001,0x13,,
111.532443360000002,0xEB,,
111.544858239999996,0x9B,,
111.545685759999998,0x00,,
111.546513439999998,0x00,,
111.547341119999999,0x44,,
111.548168799999999,0x00,,
111.548996480000000,0x6B,,
111.549772480000001,0x00,,
111.550651840000000,0x1D,,
111.551427840000002,0x13,,
111.552307200000001,0xE1,,
111.564670239999998,0x9B,,
111.565497919999999,0x00,,
111.566325440000000,0x00,,
111.567153120000000,0x45,,
111.567980800000001,0x00,,
111.568808480000001,0x6B,,
111.569636000000003,0x00,,
111.570463680000003,0x1E,,
111.571239680000005,0x13,,
111.572119040000004,0xD8,,
111.583706239999998,0x9B,,
111.584482080000001,0x00,,
111.585309760000001,0x00,,
111.586085600000004,0x46,,
111.586913280000005,0x00,,
111.587740960000005,0x6B,,
111.588568640000005,0x00,,
111.589396160000007,0x1E,,
111.590223839999993,0x13,,
111.591051519999994,0xC7,,
111.603414720000004,0x9B,,
111.604242400000004,0x00,,
111.605070080000004,0x00,,
111.605846080000006,0x47,,
111.606725440000005,0x00,,
111.607501279999994,0x6B,,
111.608328959999994,0x00,,
111.609156639999995,0x1E,,
111.609984319999995,0x13,,
111.610811999999996,0xC1,,
111.623123359999994,0x9B,,
111.623951039999994,0x00,,
111.624778559999996,0x00,,
111.625606239999996,0x48,,
111.626433919999997,0x00,,
111.627209760000000,0x6A,,
111.628037440000000,0x00,,
111.628865120000000,0x1F,,
111.629744479999999,0x13,,
111.630520320000002,0xBD,,
111.642779840000003,0x9B,,
111.643607520000003,0x00,,
111.644435200000004,0x00,,
111.645262880000004,0x49,,
111.646090560000005,0x00,,
111.646866399999993,0x6B,,
111.647694079999994,0x00,,
111.648521759999994,0x1F,,
111.649401280000006,0x13,,
